time	V(pay)/(D(V(Vind,Vtr))/D(time)+10/280e-9*V(Vind,Vtr))	V(vtr)
0.000000000000000e+000	4.616946e-007	1.000000e+002
1.056735057723547e-012	1.223339e-002	1.000000e+002
1.170205181162247e-012	4.461664e-007	1.000000e+002
1.397145428039647e-012	4.461610e-007	1.000000e+002
1.851025921794447e-012	4.461556e-007	1.000000e+002
2.758786909304048e-012	4.461393e-007	1.000001e+002
4.574308884323248e-012	4.758480e-007	1.000001e+002
8.205352834361649e-012	4.757863e-007	1.000002e+002
1.546744073443845e-011	4.673175e-007	1.000003e+002
2.425821500377468e-011	4.751852e-007	1.000005e+002
3.361029054436782e-011	4.924257e-007	1.000007e+002
4.457087743246184e-011	4.982778e-007	1.000009e+002
5.493433614447986e-011	5.097910e-007	1.000011e+002
6.990438965078373e-011	5.255998e-007	1.000014e+002
8.710054728949093e-011	5.518509e-007	1.000017e+002
1.104628129363586e-010	5.712443e-007	1.000022e+002
1.383176611755535e-010	6.028035e-007	1.000026e+002
1.756797132699965e-010	6.561092e-007	1.000032e+002
2.220472263560852e-010	7.276925e-007	1.000039e+002
2.844903083992105e-010	8.330750e-007	1.000047e+002
3.664440810450949e-010	1.012163e-006	1.000057e+002
4.846978125623920e-010	1.276357e-006	1.000067e+002
6.657070053635219e-010	1.578112e-006	1.000080e+002
8.727863604130710e-010	1.865131e-006	1.000092e+002
1.153137844608437e-009	1.991263e-006	1.000106e+002
1.441818921892987e-009	2.222867e-006	1.000120e+002
1.906243901827978e-009	3.700350e-006	1.000140e+002
1.990904218556950e-009	-4.476253e-007	1.000135e+002
2.160224852014894e-009	-1.976274e-007	1.000083e+002
2.243004100782320e-009	-6.969102e-008	1.000008e+002
2.298837529922493e-009	-3.172780e-008	9.998845e+001
2.350920864278935e-009	-1.847675e-008	9.996675e+001
2.388806325078673e-009	-1.099175e-008	9.993977e+001
2.424423942476472e-009	-7.321192e-009	9.989987e+001
2.454184955760561e-009	-4.971781e-009	9.985046e+001
2.482656146122668e-009	-3.515229e-009	9.978274e+001
2.510694129902446e-009	-2.538651e-009	9.968969e+001
2.538528354837395e-009	-1.830947e-009	9.956263e+001
2.566940433601152e-009	-1.291816e-009	9.938244e+001
2.602979230065517e-009	-9.326228e-010	9.906354e+001
2.642073973436842e-009	-6.608321e-010	9.857658e+001
2.688480337734546e-009	-4.824598e-010	9.776920e+001
2.739519074762138e-009	-3.578439e-010	9.655608e+001
2.800364245271360e-009	-2.764422e-010	9.464100e+001
2.871428612136758e-009	-2.218551e-010	9.178161e+001
2.960470400759353e-009	-1.897064e-010	8.741969e+001
3.042181257276776e-009	-1.670085e-010	8.278059e+001
3.122186775161136e-009	-1.534049e-010	7.773640e+001
3.198786834785221e-009	-1.453127e-010	7.257224e+001
3.273254188465197e-009	-1.409878e-010	6.734052e+001
3.346832488615124e-009	-1.399486e-010	6.207148e+001
3.420693338591137e-009	-1.420709e-010	5.680582e+001
3.474971424239093e-009	-1.521684e-010	5.305729e+001
3.534207413642502e-009	-1.755354e-010	4.934734e+001
3.595649606677664e-009	-2.064250e-010	4.618289e+001
3.633292494154180e-009	-2.425740e-010	4.454901e+001
3.676150784664708e-009	-2.655746e-010	4.286361e+001
3.727386991480551e-009	-2.843639e-010	4.100446e+001
3.823055557414936e-009	-2.902964e-010	3.768897e+001
4.014392689283705e-009	-2.897067e-010	3.109302e+001
4.199345415414506e-009	-2.924093e-010	2.469174e+001
4.479844920542913e-009	-2.977931e-010	1.514893e+001
4.618078116952685e-009	-3.162181e-010	1.067378e+001
4.723533607180456e-009	-3.335232e-010	7.455321e+000
4.789089019544459e-009	-3.546478e-010	5.551954e+000
4.868889175271993e-009	-3.747415e-010	3.356290e+000
4.930600067417184e-009	-4.047426e-010	1.777497e+000
4.960800890024207e-009	-4.566465e-010	1.087401e+000
4.975663260483808e-009	-5.199772e-010	7.912002e-001
4.980956499729978e-009	-6.361133e-010	6.998814e-001
4.989413521507661e-009	-7.261157e-010	5.750224e-001
5.000000000000000e-009	-7.853682e-010	4.376089e-001
5.001058647849234e-009	-1.011803e-009	4.267679e-001
5.003175943547702e-009	-1.126216e-009	4.062176e-001
5.007410534944638e-009	-1.366317e-009	3.703661e-001
5.015879717738509e-009	-1.713402e-009	3.132307e-001
5.024235041458381e-009	-2.391569e-009	2.721680e-001
5.031025968206092e-009	-3.663465e-009	2.498976e-001
5.037367472958273e-009	-5.671493e-009	2.363205e-001
5.043876789537184e-009	-8.836239e-009	2.272404e-001
5.051143276237661e-009	-1.360187e-008	2.207364e-001
5.057994209943476e-009	-2.194250e-008	2.168654e-001
5.065476910825955e-009	-3.420157e-008	2.142069e-001
5.073275419059558e-009	-5.200059e-008	2.123975e-001
5.082631189864255e-009	-7.260938e-008	2.109123e-001
5.093337311305047e-009	-9.436126e-008	2.096477e-001
5.107140286958412e-009	-1.118612e-007	2.083241e-001
5.124776079358902e-009	-1.259237e-007	2.068495e-001
5.150892292324755e-009	-1.407601e-007	2.049011e-001
5.191491361126662e-009	-1.610910e-007	2.022504e-001
5.261220297732596e-009	-1.941109e-007	1.984056e-001
5.345399153951989e-009	-2.418040e-007	1.946272e-001
5.443178380629475e-009	-3.085225e-007	1.912155e-001
5.561166084600996e-009	-4.119752e-007	1.881982e-001
5.709988608375992e-009	-6.176710e-007	1.856897e-001
5.886977737848495e-009	-9.978355e-007	1.841500e-001
6.111197418946585e-009	-2.311408e-006	1.838380e-001
6.384315525503113e-009	-5.093478e-006	1.850929e-001
6.736530727127532e-009	3.834049e-004	1.881977e-001
7.177843452648689e-009	1.803674e-006	1.929855e-001
7.703325775704014e-009	3.877445e-007	1.987874e-001
8.045299057848598e-009	4.515203e-007	2.022733e-001
8.278439878385224e-009	7.242569e-007	2.044009e-001
8.471484865033773e-009	9.916746e-007	2.060001e-001
8.644515340070667e-009	1.447422e-006	2.073209e-001
8.818601763134805e-009	3.355748e-006	2.085506e-001
9.035445299945106e-009	2.808244e-006	2.099684e-001
9.273815402229597e-009	3.370147e-006	2.114090e-001
9.542683727601968e-009	2.666724e-006	2.129117e-001
9.821365911775627e-009	5.050531e-006	2.143604e-001
1.013534234342591e-008	3.768262e-006	2.158934e-001
1.046465432732897e-008	9.326849e-006	2.174222e-001
1.083278179331640e-008	1.441003e-005	2.190665e-001
1.123124096230956e-008	-1.055147e-005	2.207977e-001
1.171095931396018e-008	9.941545e-007	2.228434e-001
1.211781498848780e-008	6.151940e-007	2.245578e-001
1.237728399766363e-008	9.582201e-007	2.256424e-001
1.257825579684600e-008	1.517376e-006	2.264779e-001
1.275627250734579e-008	1.775722e-006	2.272149e-001
1.291834408973407e-008	1.870068e-006	2.278833e-001
1.306394891334620e-008	2.479068e-006	2.284822e-001
1.321065900977569e-008	3.342936e-006	2.290834e-001
1.336718061788919e-008	5.933215e-006	2.297211e-001
1.355487395553538e-008	3.394226e-006	2.304822e-001
1.374952026178258e-008	3.923485e-006	2.312680e-001
1.396394623846144e-008	2.917628e-006	2.321286e-001
1.418148093413975e-008	2.821011e-006	2.329960e-001
1.440688662967852e-008	2.005098e-006	2.338887e-001
1.461759158453644e-008	2.050371e-006	2.347175e-001
1.480737543498848e-008	-1.463762e-005	2.354586e-001
1.504611598845454e-008	-1.321326e-006	2.363831e-001
1.541890751845602e-008	-9.902305e-007	2.378098e-001
1.598765310563099e-008	-1.334113e-005	2.399528e-001
1.660347470481065e-008	3.314743e-006	2.422300e-001
1.719766598104757e-008	-1.899270e-006	2.443786e-001
1.796324629884291e-008	-2.900786e-007	2.470829e-001
1.961887954337862e-008	1.004887e-006	2.526771e-001
2.076131271340938e-008	-1.687904e-007	2.563234e-001
2.304617905347090e-008	-3.430015e-007	2.631788e-001
2.581707171392312e-008	-2.785889e-007	2.708437e-001
2.903492569922759e-008	-7.598071e-008	2.787016e-001
3.547063366983652e-008	-9.157297e-008	2.917017e-001
4.600964375257203e-008	8.149881e-007	3.082067e-001
5.625284168859934e-008	4.829961e-007	3.198157e-001
6.644396297634841e-008	2.275415e-006	3.277308e-001
7.776008547486379e-008	6.731590e-007	3.337468e-001
8.819712660298305e-008	1.093110e-006	3.375445e-001
9.829259579496749e-008	3.651409e-006	3.400395e-001
1.089611240634895e-007	5.854354e-006	3.418410e-001
1.201574348794162e-007	1.032936e-005	3.431215e-001
1.319063291220143e-007	-7.580961e-006	3.439987e-001
1.471194623922440e-007	1.196707e-005	3.447101e-001
1.621847640527146e-007	-1.171140e-004	3.451224e-001
1.836876099390197e-007	-5.743925e-005	3.454728e-001
1.860993062649956e-007	-1.434748e-004	3.454920e-001
1.885110025909715e-007	1.198377e-003	3.455099e-001
1.909226989169474e-007	1.665756e-004	3.455266e-001
1.933343952429234e-007	1.171428e-004	3.455421e-001
1.957460915688993e-007	1.185621e-004	3.455563e-001
1.981577878948752e-007	1.755404e-004	3.455693e-001
2.005694842208511e-007	-4.942205e-005	3.455811e-001
2.050000000000000e-007	5.627130e-005	3.456000e-001
2.050054516393224e-007	-4.685090e-007	3.454830e-001
2.050163549179673e-007	-4.725868e-007	3.452509e-001
2.050248054870793e-007	-4.813226e-007	3.450735e-001
2.050331780141924e-007	-4.969510e-007	3.449013e-001
2.050499230684186e-007	-5.215911e-007	3.445679e-001
2.050834131768709e-007	-5.635980e-007	3.439377e-001
2.051434304984026e-007	-6.320526e-007	3.429075e-001
2.052223452951300e-007	-7.665833e-007	3.417383e-001
2.053335600215228e-007	-1.018576e-006	3.404256e-001
2.054715067180002e-007	-1.683789e-006	3.392911e-001
2.056527359112234e-007	-5.369576e-006	3.385302e-001
2.058746441673157e-007	4.035380e-006	3.385440e-001
2.061593851623129e-007	1.465718e-006	3.397965e-001
2.065159428534296e-007	8.366856e-007	3.429447e-001
2.069952140629740e-007	5.186205e-007	3.498625e-001
2.076992160254725e-007	3.350728e-007	3.659323e-001
2.082280776730297e-007	1.901079e-007	3.865801e-001
2.086233708290836e-007	1.057508e-007	4.144269e-001
2.089075358888973e-007	5.827960e-008	4.507039e-001
2.091195722211906e-007	3.235070e-008	4.994669e-001
2.092833057141144e-007	1.803372e-008	5.667807e-001
2.094146418073216e-007	1.004268e-008	6.630357e-001
2.095260929196955e-007	5.531776e-009	8.085338e-001
2.096287359933925e-007	3.103333e-009	1.050214e+000
2.097429897741982e-007	2.043711e-009	1.507983e+000
2.098506588837884e-007	1.587576e-009	2.135956e+000
2.098924851434987e-007	1.265270e-009	2.448039e+000
2.099163474805792e-007	1.094590e-009	2.654772e+000
2.099522753258390e-007	1.024424e-009	2.994483e+000
2.100000000000000e-007	9.591634e-010	3.471484e+000
2.100334072719127e-007	8.776451e-010	3.840108e+000
2.100715870112415e-007	8.123222e-010	4.287541e+000
2.101479464898991e-007	7.395282e-010	5.252268e+000
2.103006654472143e-007	6.623489e-010	7.394232e+000
2.105960790604692e-007	5.968122e-010	1.204609e+001
2.109797452172915e-007	5.393835e-010	1.879457e+001
2.114478400422538e-007	4.857402e-010	2.782958e+001
2.120035114126407e-007	4.239082e-010	3.974977e+001
2.123468325392837e-007	3.505552e-010	4.863295e+001
2.124375575307007e-007	2.529355e-010	5.181248e+001
2.125133371010662e-007	2.216028e-010	5.507522e+001
2.125612681888273e-007	2.105713e-010	5.727071e+001
2.126068962053394e-007	2.059336e-010	5.941880e+001
2.126981522383637e-007	2.035650e-010	6.377286e+001
2.128619533898641e-007	2.007411e-010	7.165906e+001
2.130752542448577e-007	1.958041e-010	8.204454e+001
2.133566740433292e-007	1.842380e-010	9.610811e+001
2.137727873546943e-007	1.637642e-010	1.184038e+002
2.142592252259381e-007	1.392006e-010	1.480500e+002
2.145459117802579e-007	1.109285e-010	1.692477e+002
2.147544413090489e-007	8.976140e-011	1.883513e+002
2.150182191605210e-007	8.096737e-011	2.162091e+002
2.150941938128231e-007	7.434673e-011	2.248889e+002
2.151763673948882e-007	7.190429e-011	2.346847e+002
2.152598592152255e-007	7.065411e-011	2.447655e+002
2.153416470387566e-007	6.979273e-011	2.547074e+002
2.154295084108317e-007	6.915158e-011	2.654072e+002
2.155099084447913e-007	6.882287e-011	2.751787e+002
2.155974158072711e-007	6.859341e-011	2.857615e+002
2.156926750404518e-007	6.851891e-011	2.971918e+002
2.158094776361209e-007	6.845235e-011	3.110508e+002
2.159473274566103e-007	6.860909e-011	3.271492e+002
2.161266972973640e-007	6.893646e-011	3.476202e+002
2.163662643192397e-007	6.996972e-011	3.740111e+002
2.167226658578022e-007	7.213164e-011	4.109289e+002
2.173148917859597e-007	7.379014e-011	4.657622e+002
2.181840418052210e-007	7.294287e-011	5.316495e+002
2.192119096800080e-007	7.425523e-011	5.864609e+002
2.202437895708578e-007	1.153176e-010	6.158899e+002
2.210069775233949e-007	-2.069162e-010	6.183630e+002
2.218745673839627e-007	-5.864180e-011	6.007855e+002
2.227159448831857e-007	-3.156904e-011	5.632658e+002
2.242847625917730e-007	-2.360779e-011	4.539233e+002
2.260568666202700e-007	-1.995422e-011	2.978740e+002
2.265312520995129e-007	-1.857505e-011	2.510494e+002
2.268419540569933e-007	-1.893755e-011	2.198763e+002
2.270145048762335e-007	-2.082590e-011	2.036099e+002
2.272017103920129e-007	-2.357695e-011	1.876163e+002
2.274112009322089e-007	-2.830078e-011	1.721450e+002
2.277788006431304e-007	-3.248276e-011	1.493866e+002
2.280809384001568e-007	-3.892602e-011	1.336740e+002
2.284313868186010e-007	-4.415811e-011	1.180531e+002
2.287865991405161e-007	-4.891800e-011	1.038088e+002
2.292508124597530e-007	-5.249183e-011	8.666956e+001
2.298279505839058e-007	-5.534183e-011	6.666836e+001
2.302399903056427e-007	-6.058358e-011	5.342527e+001
2.304376613783311e-007	-7.401927e-011	4.798895e+001
2.305770021455082e-007	-9.328475e-011	4.494383e+001
2.307008537184926e-007	-1.107479e-010	4.272266e+001
2.308236648469107e-007	-1.235413e-010	4.078382e+001
2.309640426638393e-007	-1.326877e-010	3.874170e+001
2.311267176272765e-007	-1.410381e-010	3.651345e+001
2.314520675541510e-007	-1.458499e-010	3.225905e+001
2.317874780225710e-007	-1.525410e-010	2.804255e+001
2.322603979963687e-007	-1.585608e-010	2.233846e+001
2.327418906931308e-007	-1.671604e-010	1.679280e+001
2.332945164185677e-007	-1.774205e-010	1.077188e+001
2.338721304323094e-007	-1.891905e-010	4.887151e+000
2.345917497274401e-007	-1.927007e-010	-2.036973e+000
2.346005118397255e-007	-2.107536e-010	-2.117585e+000
2.346180360642964e-007	-2.408494e-010	-2.269763e+000
2.346530845134381e-007	-3.367900e-010	-2.525433e+000
2.346947444783907e-007	-9.045318e-010	-2.695186e+000
2.347412658058838e-007	2.046240e-009	-2.707370e+000
2.347836933856554e-007	6.953372e-010	-2.613873e+000
2.348442654176835e-007	6.262415e-010	-2.430218e+000
2.349013894246780e-007	7.003640e-010	-2.262622e+000
2.349943922521652e-007	8.293694e-010	-2.028659e+000
2.350866446774029e-007	1.061995e-009	-1.845255e+000
2.351642894974102e-007	1.453613e-009	-1.730286e+000
2.352441497400049e-007	1.985950e-009	-1.642835e+000
2.353323369577361e-007	2.828993e-009	-1.571851e+000
2.354495924025645e-007	4.256382e-009	-1.506061e+000
2.355920928081187e-007	7.882970e-009	-1.456477e+000
2.357703756075953e-007	2.749883e-008	-1.428022e+000
2.359801828289816e-007	-2.576263e-008	-1.427853e+000
2.362274819597658e-007	-1.103149e-008	-1.458586e+000
2.364836455564628e-007	-8.130081e-009	-1.512178e+000
2.367409416606350e-007	-7.579122e-009	-1.576832e+000
2.369587720503411e-007	-8.003800e-009	-1.632038e+000
2.371213380261455e-007	-9.412970e-009	-1.668318e+000
2.373100211702510e-007	-1.298809e-008	-1.701036e+000
2.374849670810318e-007	-2.277683e-008	-1.720963e+000
2.376598823133818e-007	-8.860294e-008	-1.729544e+000
2.378618869861388e-007	5.734831e-008	-1.727689e+000
2.380467418713058e-007	2.630059e-008	-1.717499e+000
2.382289745094561e-007	2.006613e-008	-1.701779e+000
2.384147041905779e-007	1.843110e-008	-1.682952e+000
2.386132909438668e-007	1.816055e-008	-1.662246e+000
2.387985505925658e-007	2.000674e-008	-1.643984e+000
2.389809530783265e-007	2.350928e-008	-1.628000e+000
2.391784111165889e-007	2.634773e-008	-1.613229e+000
2.393574640358740e-007	3.179296e-008	-1.602074e+000
2.395246458078776e-007	4.020800e-008	-1.593491e+000
2.396898946840550e-007	5.636425e-008	-1.586472e+000
2.398987997871799e-007	6.098379e-008	-1.578990e+000
2.401260339824369e-007	6.061266e-008	-1.571802e+000
2.403511665020027e-007	5.869945e-008	-1.565053e+000
2.405655776217945e-007	5.634959e-008	-1.558463e+000
2.407634285098189e-007	6.250664e-008	-1.551854e+000
2.410092194101347e-007	5.175984e-008	-1.542693e+000
2.412746978398810e-007	4.547518e-008	-1.531592e+000
2.415594861475772e-007	4.159285e-008	-1.518294e+000
2.418805657783948e-007	3.489097e-008	-1.501822e+000
2.421924419137568e-007	3.332744e-008	-1.484498e+000
2.425131334843366e-007	3.296651e-008	-1.465272e+000
2.428848196712970e-007	2.939501e-008	-1.440976e+000
2.432863618527329e-007	2.674522e-008	-1.410976e+000
2.438344382395702e-007	1.691902e-008	-1.361246e+000
2.443010673544008e-007	1.244516e-008	-1.306595e+000
2.446504090589968e-007	9.307110e-009	-1.249449e+000
2.450342743246903e-007	6.309243e-009	-1.158570e+000
2.453811271780440e-007	4.139661e-009	-1.034692e+000
2.457690475008915e-007	2.767901e-009	-8.229939e-001
2.462128705150442e-007	1.937227e-009	-4.655407e-001
2.467333922400348e-007	1.438101e-009	1.185270e-001
2.472936092458142e-007	1.111569e-009	9.487864e-001
2.479350470480101e-007	8.839223e-010	2.157337e+000
2.486927166498880e-007	7.022578e-010	3.946811e+000
2.497933747762676e-007	5.587599e-010	7.252780e+000
2.516583454501269e-007	4.516648e-010	1.425443e+001
2.534078986848114e-007	3.767327e-010	2.224618e+001
2.552814307941349e-007	3.238517e-010	3.223758e+001
2.565306732462620e-007	2.799511e-010	3.987185e+001
2.572743865410019e-007	2.377354e-010	4.526301e+001
2.575410053535545e-007	1.903439e-010	4.767476e+001
2.577151713381766e-007	1.641712e-010	4.956747e+001
2.578251053948941e-007	1.482831e-010	5.090055e+001
2.579412508212461e-007	1.394272e-010	5.241582e+001
2.580698847128397e-007	1.332940e-010	5.418206e+001
2.582216286791461e-007	1.289838e-010	5.634904e+001
2.584117511668447e-007	1.261668e-010	5.914077e+001
2.586568627219519e-007	1.243810e-010	6.280689e+001
2.589785618923435e-007	1.231255e-010	6.767711e+001
2.593807020876481e-007	1.220582e-010	7.381888e+001
2.598281178578050e-007	1.212384e-010	8.070637e+001
2.603908366710421e-007	1.200924e-010	8.944514e+001
2.611200867975889e-007	1.180208e-010	1.009004e+002
2.618830817997861e-007	1.151250e-010	1.131102e+002
2.627409540541670e-007	1.104799e-010	1.272633e+002
2.635653435321150e-007	1.042045e-010	1.415694e+002
2.645690256888448e-007	9.819616e-011	1.601814e+002
2.655923877032126e-007	9.502779e-011	1.801717e+002
2.665403543764895e-007	9.579541e-011	1.988005e+002
2.669799259209788e-007	1.068639e-010	2.069174e+002
2.674366917892037e-007	1.226543e-010	2.144376e+002
2.679288923829240e-007	1.480922e-010	2.213722e+002
2.684503977336084e-007	1.957487e-010	2.272193e+002
2.689762068987895e-007	3.182215e-010	2.313523e+002
2.695597730790434e-007	1.089322e-009	2.337114e+002
2.702346536879490e-007	-6.339266e-010	2.334624e+002
2.710978056196659e-007	-2.572902e-010	2.290760e+002
2.719095527005294e-007	-1.625680e-010	2.212733e+002
2.726468049621582e-007	-1.251697e-010	2.112820e+002
2.734568494881873e-007	-1.106080e-010	1.981191e+002
2.741930097498660e-007	-1.069409e-010	1.851977e+002
2.750226753029330e-007	-1.111853e-010	1.706723e+002
2.760793553929123e-007	-1.189083e-010	1.533082e+002
2.770862600782427e-007	-1.323848e-010	1.382889e+002
2.781612061112331e-007	-1.490123e-010	1.238971e+002
2.794462662871706e-007	-1.697769e-010	1.085041e+002
2.812915174023015e-007	-1.902389e-010	8.898243e+001
2.833059310338778e-007	-2.172237e-010	7.053967e+001
2.848308621809684e-007	-2.706144e-010	5.896563e+001
2.860762762562021e-007	-3.557797e-010	5.163939e+001
2.870186318217908e-007	-4.790158e-010	4.758853e+001
2.875073505412660e-007	-7.215190e-010	4.610418e+001
2.881446471711803e-007	-9.270624e-010	4.467878e+001
2.886629230674813e-007	-1.231208e-009	4.377765e+001
2.892109690184348e-007	-1.679193e-009	4.306394e+001
2.898383754347997e-007	-2.400780e-009	4.247450e+001
2.904120382977158e-007	-4.269321e-009	4.212969e+001
2.910073295527592e-007	-1.596151e-008	4.196586e+001
2.916263187092541e-007	8.380722e-009	4.199180e+001
2.922956917377337e-007	2.867129e-009	4.226471e+001
2.932961551174122e-007	1.661190e-009	4.312917e+001
2.944944321332364e-007	1.156152e-009	4.476976e+001
2.951660925487118e-007	8.380446e-010	4.607042e+001
2.956568999629855e-007	6.385615e-010	4.733455e+001
2.962983383312880e-007	5.256834e-010	4.940197e+001
2.968876360053212e-007	4.411010e-010	5.170512e+001
2.973980380257693e-007	3.828148e-010	5.404790e+001
2.979031068574345e-007	3.438014e-010	5.666531e+001
2.985911933829928e-007	3.170592e-010	6.058109e+001
